
**** 07/17/21 06:21:20 ********* PSpice 9.2 (Mar 2000) ******** ID# 1 ********

 ** Profile: "SCHEMATIC1-Gain"  [ C:\Users\John\Desktop\Elec1\Simulation\Bonus\Part3\vout_full_wave-SCHEMATIC1-Gain.sim ] 


 ****     CIRCUIT DESCRIPTION


******************************************************************************




** Creating circuit file "vout_full_wave-SCHEMATIC1-Gain.sim.cir" 
** WARNING: THIS AUTOMATICALLY GENERATED FILE MAY BE OVERWRITTEN BY SUBSEQUENT SIMULATIONS

*Libraries: 
* Local Libraries :
* From [PSPICE NETLIST] section of C:\Program Files\Orcad\PSpice\PSpice.ini file:
.lib "nom.lib" 

*Analysis directives: 
.TRAN  0 47ms 46.5ms 1us 
.PROBE V(*) I(*) W(*) D(*) NOISE(*) 
.INC ".\vout_full_wave-SCHEMATIC1.net" 



**** INCLUDING vout_full_wave-SCHEMATIC1.net ****
* source VOUT_FULL_WAVE
R_RB2         0 N16625  3.9k  
R_Re         0 VOUT  2k  
X_TX1_2    N02906 0 N01417 N01522 SCHEMATIC1_TX1_2 
R_RC3         N02604 VOUT_FULL  0.9k  
D_D4_2         N01522 VOUT_FULL D1N4001 
C_C1         N02636 VOUT  1u  
V_V2         VS 0  
+SIN 0 1m 10k 0 0 0
R_RB6         0 N10825  360k  
R_RC2         0 VO2  280  
R_RE1         0 N16970  500  
R_RE3         0 N02636  3k  
C_C2         VO2 N10825  1u  
R_RB1         N16625 VOUT_FULL  50k  
C_C5         VI N16970  1u  
D_D1_2         0 N01417 D1N4001 
Q_Q2         VO2 N07945 N09547 Q2N4355
R_RC1         VO1 VOUT_FULL  29k  
R_Rs         VI VS  25  
V_V1_2         N02273 0  
+SIN 0 311.1 50 0 0 0
Q_Q3         N02604 N10825 N02636 BC368 
C_C3         VO1 N07945  1u  
C_C1_2         0 VOUT_FULL  100u  
R_R1_2         N02273 N02906  1  
C_C4         0 N16625  1u  
Q_Q1         VO1 N16625 N16970 BC368 
R_RB3         N07945 VOUT_FULL  480k  
R_RE2         N09547 VOUT_FULL  0.75k  
R_RB5         N10825 VOUT_FULL  95.3k  
D_D2_2         N01417 VOUT_FULL D1N4001 
R_RB4         0 N07945  160k  
D_D3_2         0 N01522 D1N4001 

.subckt SCHEMATIC1_TX1_2 1 2 3 4  
K_TX1_2         L1_TX1_2 L2_TX1_2 1
L1_TX1_2         1 2 2420mH
L2_TX1_2         3 4 3250uH
.ends SCHEMATIC1_TX1_2

**** RESUMING vout_full_wave-SCHEMATIC1-Gain.sim.cir ****
.END

**** 07/17/21 06:21:20 ********* PSpice 9.2 (Mar 2000) ******** ID# 1 ********

 ** Profile: "SCHEMATIC1-Gain"  [ C:\Users\John\Desktop\Elec1\Simulation\Bonus\Part3\vout_full_wave-SCHEMATIC1-Gain.sim ] 


 ****     Diode MODEL PARAMETERS


******************************************************************************




               D1N4001         
          IS   14.110000E-09 
           N    1.984        
         IKF   94.81         
          BV   75            
         IBV   10.000000E-06 
          RS     .03389      
          TT    5.700000E-06 
         CJO   25.890000E-12 
          VJ     .3245       
           M     .44         


**** 07/17/21 06:21:20 ********* PSpice 9.2 (Mar 2000) ******** ID# 1 ********

 ** Profile: "SCHEMATIC1-Gain"  [ C:\Users\John\Desktop\Elec1\Simulation\Bonus\Part3\vout_full_wave-SCHEMATIC1-Gain.sim ] 


 ****     BJT MODEL PARAMETERS


******************************************************************************




               Q2N4355         BC368           
               PNP             NPN             
          IS   12.270000E-12   14.060000E-15 
          BF  194.8           187.6          
          NF    1               1            
         VAF  100             100            
         IKF    1.123           4.103        
         ISE   12.270000E-12  137.200000E-15 
          NE    1.649           1.468        
          BR    1.184           4.541        
          NR    1               1            
         IKR                    1.701        
         ISC                   44.130000E-15 
          NC                    1.471        
          NK                     .5507       
          RB   10                            
          RC     .6              .091        
         CJE  106.700000E-12  156.000000E-12 
         VJE                     .5          
         MJE     .5168           .3333       
         CJC   48.280000E-12   52.240000E-12 
         VJC                     .5          
         MJC     .5615           .3333       
          TF  867.000000E-12  964.800000E-12 
         XTF     .8             1.001000E+03 
         VTF    2              10            
         ITF     .2           595.3          
          TR  474.500000E-09   10.000000E-09 
         XTB    1.5             1.5          
          CN    2.2             2.42         
           D     .52             .87         


**** 07/17/21 06:21:20 ********* PSpice 9.2 (Mar 2000) ******** ID# 1 ********

 ** Profile: "SCHEMATIC1-Gain"  [ C:\Users\John\Desktop\Elec1\Simulation\Bonus\Part3\vout_full_wave-SCHEMATIC1-Gain.sim ] 


 ****     INITIAL TRANSIENT SOLUTION       TEMPERATURE =   27.000 DEG C


******************************************************************************



 NODE   VOLTAGE     NODE   VOLTAGE     NODE   VOLTAGE     NODE   VOLTAGE


(   VI)    0.0000  (   VS)    0.0000  (  VO1)-19.85E-21  (  VO2) 393.9E-27      

( VOUT)    0.0000  (N01417)-2.403E-18 (N01522)-2.403E-18 (N02273)    0.0000     

(N02604)-19.85E-21 (N02636) 8.883E-27 (N02906)    0.0000 (N07945)-5.053E-21     

(N09547)-19.85E-21 (N10825)-15.70E-21 (N16625)-1.436E-21 (N16970)-2.416E-27     

(VOUT_FULL)-19.85E-21                 




    VOLTAGE SOURCE CURRENTS
    NAME         CURRENT

    V_V2         0.000E+00
    V_V1_2       0.000E+00

    TOTAL POWER DISSIPATION   0.00E+00  WATTS



          JOB CONCLUDED

          TOTAL JOB TIME            1.92
